Time [s], Analyzer Name, Decoded Protocol Result
0.000000000000000,I2C,Setup Write to [0x36] + NAK
0.000109992000000,I2C,Setup Read to [0x36] + NAK
0.000231136000000,I2C,Setup Write to [0x36] + NAK
0.000341136000000,I2C,Setup Read to [0x36] + NAK
0.000462032000000,I2C,Setup Write to [0x36] + NAK
0.000572036000000,I2C,Setup Read to [0x36] + NAK
0.001699672000000,I2C,Setup Write to [0x36] + ACK
0.001789672000000,I2C,0x30 + ACK
0.001879672000000,I2C,0x0A + ACK
0.001989672000000,I2C,Setup Read to [0x36] + ACK
0.002079672000000,I2C,0x56 + ACK
0.002169672000000,I2C,0x47 + NAK
0.002370624000000,I2C,Setup Write to [0x71] + NAK
0.002480628000000,I2C,Setup Read to [0x71] + NAK
0.002601636000000,I2C,Setup Write to [0x71] + NAK
0.002711640000000,I2C,Setup Read to [0x71] + NAK
0.002832532000000,I2C,Setup Write to [0x71] + NAK
0.002942532000000,I2C,Setup Read to [0x71] + NAK
0.003583948000000,I2C,Setup Write to [0x36] + ACK
0.003673948000000,I2C,0x01 + ACK
0.003763948000000,I2C,0x03 + ACK
0.003853948000000,I2C,0x01 + ACK
0.003978948000000,I2C,Setup Write to [0x36] + ACK
0.004068948000000,I2C,0x01 + ACK
0.004158948000000,I2C,0x00 + ACK
0.004248948000000,I2C,0x00 + ACK
0.033713836000000,I2C,Setup Write to [0x36] + ACK
0.033803836000000,I2C,0x01 + ACK
0.033893836000000,I2C,0x00 + ACK
0.033983836000000,I2C,0x00 + ACK
0.034103836000000,I2C,Setup Write to [0x36] + ACK
0.034193836000000,I2C,0x01 + ACK
0.034283836000000,I2C,0x03 + ACK
0.034373832000000,I2C,0x01 + ACK
0.034493836000000,I2C,Setup Write to [0x36] + ACK
0.034583832000000,I2C,0x30 + ACK
0.034673832000000,I2C,0x34 + ACK
0.034763832000000,I2C,0x1A + ACK
0.034883832000000,I2C,Setup Write to [0x36] + ACK
0.034973832000000,I2C,0x30 + ACK
0.035063832000000,I2C,0x35 + ACK
0.035153832000000,I2C,0x21 + ACK
0.035273832000000,I2C,Setup Write to [0x36] + ACK
0.035363828000000,I2C,0x30 + ACK
0.035453828000000,I2C,0x36 + ACK
0.035543828000000,I2C,0x62 + ACK
0.035663828000000,I2C,Setup Write to [0x36] + ACK
0.035753828000000,I2C,0x30 + ACK
0.035843828000000,I2C,0x3C + ACK
0.035933828000000,I2C,0x11 + ACK
0.036053828000000,I2C,Setup Write to [0x36] + ACK
0.036143828000000,I2C,0x31 + ACK
0.036233828000000,I2C,0x06 + ACK
0.036323824000000,I2C,0xF5 + ACK
0.036443828000000,I2C,Setup Write to [0x36] + ACK
0.036533828000000,I2C,0x38 + ACK
0.036623824000000,I2C,0x21 + ACK
0.036713824000000,I2C,0x00 + ACK
0.036833824000000,I2C,Setup Write to [0x36] + ACK
0.036923824000000,I2C,0x38 + ACK
0.037013824000000,I2C,0x20 + ACK
0.037103824000000,I2C,0x00 + ACK
0.037223824000000,I2C,Setup Write to [0x36] + ACK
0.037313824000000,I2C,0x38 + ACK
0.037403824000000,I2C,0x27 + ACK
0.037493820000000,I2C,0xEC + ACK
0.037613824000000,I2C,Setup Write to [0x36] + ACK
0.037703824000000,I2C,0x37 + ACK
0.037793820000000,I2C,0x0C + ACK
0.037883820000000,I2C,0x03 + ACK
0.038003820000000,I2C,Setup Write to [0x36] + ACK
0.038093820000000,I2C,0x36 + ACK
0.038183820000000,I2C,0x12 + ACK
0.038273820000000,I2C,0x5B + ACK
0.038393820000000,I2C,Setup Write to [0x36] + ACK
0.038483820000000,I2C,0x36 + ACK
0.038573820000000,I2C,0x18 + ACK
0.038663816000000,I2C,0x04 + ACK
0.038783820000000,I2C,Setup Write to [0x36] + ACK
0.038873816000000,I2C,0x50 + ACK
0.038963816000000,I2C,0x00 + ACK
0.039053816000000,I2C,0x06 + ACK
0.039173816000000,I2C,Setup Write to [0x36] + ACK
0.039263816000000,I2C,0x50 + ACK
0.039353816000000,I2C,0x02 + ACK
0.039443816000000,I2C,0x40 + ACK
0.039563816000000,I2C,Setup Write to [0x36] + ACK
0.039653816000000,I2C,0x50 + ACK
0.039743812000000,I2C,0x03 + ACK
0.039833812000000,I2C,0x08 + ACK
0.039953812000000,I2C,Setup Write to [0x36] + ACK
0.040043812000000,I2C,0x5A + ACK
0.040133812000000,I2C,0x00 + ACK
0.040223812000000,I2C,0x08 + ACK
0.040343812000000,I2C,Setup Write to [0x36] + ACK
0.040433812000000,I2C,0x30 + ACK
0.040523812000000,I2C,0x00 + ACK
0.040613812000000,I2C,0x00 + ACK
0.040733812000000,I2C,Setup Write to [0x36] + ACK
0.040823808000000,I2C,0x30 + ACK
0.040913808000000,I2C,0x01 + ACK
0.041003808000000,I2C,0x00 + ACK
0.041123808000000,I2C,Setup Write to [0x36] + ACK
0.041213808000000,I2C,0x30 + ACK
0.041303808000000,I2C,0x02 + ACK
0.041393808000000,I2C,0x00 + ACK
0.041513808000000,I2C,Setup Write to [0x36] + ACK
0.041603808000000,I2C,0x30 + ACK
0.041693804000000,I2C,0x16 + ACK
0.041783808000000,I2C,0x08 + ACK
0.041903808000000,I2C,Setup Write to [0x36] + ACK
0.041993804000000,I2C,0x30 + ACK
0.042083804000000,I2C,0x17 + ACK
0.042173804000000,I2C,0xE0 + ACK
0.042293804000000,I2C,Setup Write to [0x36] + ACK
0.042383804000000,I2C,0x30 + ACK
0.042473804000000,I2C,0x18 + ACK
0.042563804000000,I2C,0x44 + ACK
0.042683804000000,I2C,Setup Write to [0x36] + ACK
0.042773804000000,I2C,0x30 + ACK
0.042863804000000,I2C,0x1C + ACK
0.042953800000000,I2C,0xF8 + ACK
0.043073804000000,I2C,Setup Write to [0x36] + ACK
0.043163800000000,I2C,0x30 + ACK
0.043253800000000,I2C,0x1D + ACK
0.043343800000000,I2C,0xF0 + ACK
0.043463800000000,I2C,Setup Write to [0x36] + ACK
0.043553800000000,I2C,0x3A + ACK
0.043643800000000,I2C,0x18 + ACK
0.043733800000000,I2C,0x00 + ACK
0.043853800000000,I2C,Setup Write to [0x36] + ACK
0.043943796000000,I2C,0x3A + ACK
0.044033796000000,I2C,0x19 + ACK
0.044123796000000,I2C,0xF8 + ACK
0.044243796000000,I2C,Setup Write to [0x36] + ACK
0.044333796000000,I2C,0x3C + ACK
0.044423796000000,I2C,0x01 + ACK
0.044513796000000,I2C,0x80 + ACK
0.044633796000000,I2C,Setup Write to [0x36] + ACK
0.044723796000000,I2C,0x3B + ACK
0.044813796000000,I2C,0x07 + ACK
0.044903796000000,I2C,0x0C + ACK
0.045023796000000,I2C,Setup Write to [0x36] + ACK
0.045113792000000,I2C,0x38 + ACK
0.045203792000000,I2C,0x0C + ACK
0.045293792000000,I2C,0x09 + ACK
0.045413792000000,I2C,Setup Write to [0x36] + ACK
0.045503792000000,I2C,0x38 + ACK
0.045593792000000,I2C,0x0D + ACK
0.045683792000000,I2C,0x70 + ACK
0.045803792000000,I2C,Setup Write to [0x36] + ACK
0.045893792000000,I2C,0x38 + ACK
0.045983792000000,I2C,0x0E + ACK
0.046073792000000,I2C,0x04 + ACK
0.046193792000000,I2C,Setup Write to [0x36] + ACK
0.046283788000000,I2C,0x38 + ACK
0.046373788000000,I2C,0x0F + ACK
0.046463788000000,I2C,0x50 + ACK
0.046583788000000,I2C,Setup Write to [0x36] + ACK
0.046673788000000,I2C,0x38 + ACK
0.046763788000000,I2C,0x14 + ACK
0.046853788000000,I2C,0x11 + ACK
0.046973788000000,I2C,Setup Write to [0x36] + ACK
0.047063784000000,I2C,0x38 + ACK
0.047153784000000,I2C,0x15 + ACK
0.047243784000000,I2C,0x11 + ACK
0.047363788000000,I2C,Setup Write to [0x36] + ACK
0.047453784000000,I2C,0x37 + ACK
0.047543784000000,I2C,0x08 + ACK
0.047633784000000,I2C,0x64 + ACK
0.047753784000000,I2C,Setup Write to [0x36] + ACK
0.047843784000000,I2C,0x37 + ACK
0.047933784000000,I2C,0x09 + ACK
0.048023784000000,I2C,0x12 + ACK
0.048143784000000,I2C,Setup Write to [0x36] + ACK
0.048233780000000,I2C,0x38 + ACK
0.048323780000000,I2C,0x08 + ACK
0.048413780000000,I2C,0x07 + ACK
0.048533780000000,I2C,Setup Write to [0x36] + ACK
0.048623780000000,I2C,0x38 + ACK
0.048713780000000,I2C,0x09 + ACK
0.048803780000000,I2C,0x80 + ACK
0.048923780000000,I2C,Setup Write to [0x36] + ACK
0.049013780000000,I2C,0x38 + ACK
0.049103780000000,I2C,0x0A + ACK
0.049193780000000,I2C,0x04 + ACK
0.049313780000000,I2C,Setup Write to [0x36] + ACK
0.049403780000000,I2C,0x38 + ACK
0.049493776000000,I2C,0x0B + ACK
0.049583776000000,I2C,0x38 + ACK
0.049703776000000,I2C,Setup Write to [0x36] + ACK
0.049793776000000,I2C,0x38 + ACK
0.049883776000000,I2C,0x00 + ACK
0.049973776000000,I2C,0x01 + ACK
0.050093776000000,I2C,Setup Write to [0x36] + ACK
0.050183776000000,I2C,0x38 + ACK
0.050273776000000,I2C,0x01 + ACK
0.050363772000000,I2C,0x5C + ACK
0.050483776000000,I2C,Setup Write to [0x36] + ACK
0.050573772000000,I2C,0x38 + ACK
0.050663772000000,I2C,0x02 + ACK
0.050753772000000,I2C,0x01 + ACK
0.050873772000000,I2C,Setup Write to [0x36] + ACK
0.050963772000000,I2C,0x38 + ACK
0.051053772000000,I2C,0x03 + ACK
0.051143772000000,I2C,0xB2 + ACK
0.051263772000000,I2C,Setup Write to [0x36] + ACK
0.051353772000000,I2C,0x38 + ACK
0.051443768000000,I2C,0x04 + ACK
0.051533768000000,I2C,0x08 + ACK
0.051653772000000,I2C,Setup Write to [0x36] + ACK
0.051743768000000,I2C,0x38 + ACK
0.051833768000000,I2C,0x05 + ACK
0.051923768000000,I2C,0xE3 + ACK
0.052043768000000,I2C,Setup Write to [0x36] + ACK
0.052133768000000,I2C,0x38 + ACK
0.052223768000000,I2C,0x06 + ACK
0.052313768000000,I2C,0x05 + ACK
0.052433768000000,I2C,Setup Write to [0x36] + ACK
0.052523764000000,I2C,0x38 + ACK
0.052613764000000,I2C,0x07 + ACK
0.052703764000000,I2C,0xF1 + ACK
0.052823768000000,I2C,Setup Write to [0x36] + ACK
0.052913764000000,I2C,0x38 + ACK
0.053003764000000,I2C,0x11 + ACK
0.053093764000000,I2C,0x04 + ACK
0.053213764000000,I2C,Setup Write to [0x36] + ACK
0.053303764000000,I2C,0x38 + ACK
0.053393764000000,I2C,0x13 + ACK
0.053483760000000,I2C,0x02 + ACK
0.053603764000000,I2C,Setup Write to [0x36] + ACK
0.053693760000000,I2C,0x36 + ACK
0.053783760000000,I2C,0x30 + ACK
0.053873760000000,I2C,0x2E + ACK
0.053993760000000,I2C,Setup Write to [0x36] + ACK
0.054083760000000,I2C,0x36 + ACK
0.054173760000000,I2C,0x32 + ACK
0.054263760000000,I2C,0xE2 + ACK
0.054383760000000,I2C,Setup Write to [0x36] + ACK
0.054473760000000,I2C,0x36 + ACK
0.054563760000000,I2C,0x33 + ACK
0.054653756000000,I2C,0x23 + ACK
0.054773760000000,I2C,Setup Write to [0x36] + ACK
0.054863756000000,I2C,0x36 + ACK
0.054953756000000,I2C,0x34 + ACK
0.055043756000000,I2C,0x44 + ACK
0.055163756000000,I2C,Setup Write to [0x36] + ACK
0.055253756000000,I2C,0x36 + ACK
0.055343756000000,I2C,0x36 + ACK
0.055433756000000,I2C,0x06 + ACK
0.055553756000000,I2C,Setup Write to [0x36] + ACK
0.055643756000000,I2C,0x36 + ACK
0.055733752000000,I2C,0x20 + ACK
0.055823752000000,I2C,0x64 + ACK
0.055943756000000,I2C,Setup Write to [0x36] + ACK
0.056033756000000,I2C,0x36 + ACK
0.056123752000000,I2C,0x21 + ACK
0.056213752000000,I2C,0xE0 + ACK
0.056333752000000,I2C,Setup Write to [0x36] + ACK
0.056423752000000,I2C,0x36 + ACK
0.056513752000000,I2C,0x00 + ACK
0.056603752000000,I2C,0x37 + ACK
0.056723752000000,I2C,Setup Write to [0x36] + ACK
0.056813748000000,I2C,0x37 + ACK
0.056903748000000,I2C,0x04 + ACK
0.056993748000000,I2C,0xA0 + ACK
0.057113748000000,I2C,Setup Write to [0x36] + ACK
0.057203748000000,I2C,0x37 + ACK
0.057293748000000,I2C,0x03 + ACK
0.057383748000000,I2C,0x5A + ACK
0.057503748000000,I2C,Setup Write to [0x36] + ACK
0.057593748000000,I2C,0x37 + ACK
0.057683744000000,I2C,0x15 + ACK
0.057773744000000,I2C,0x78 + ACK
0.057893748000000,I2C,Setup Write to [0x36] + ACK
0.057983744000000,I2C,0x37 + ACK
0.058073744000000,I2C,0x17 + ACK
0.058163744000000,I2C,0x01 + ACK
0.058283744000000,I2C,Setup Write to [0x36] + ACK
0.058373744000000,I2C,0x37 + ACK
0.058463744000000,I2C,0x31 + ACK
0.058553744000000,I2C,0x02 + ACK
0.058673744000000,I2C,Setup Write to [0x36] + ACK
0.058763744000000,I2C,0x37 + ACK
0.058853744000000,I2C,0x0B + ACK
0.058943740000000,I2C,0x60 + ACK
0.059063744000000,I2C,Setup Write to [0x36] + ACK
0.059153740000000,I2C,0x37 + ACK
0.059243740000000,I2C,0x05 + ACK
0.059333740000000,I2C,0x1A + ACK
0.059453740000000,I2C,Setup Write to [0x36] + ACK
0.059543740000000,I2C,0x3F + ACK
0.059633740000000,I2C,0x05 + ACK
0.059723740000000,I2C,0x02 + ACK
0.059843740000000,I2C,Setup Write to [0x36] + ACK
0.059933736000000,I2C,0x3F + ACK
0.060023736000000,I2C,0x06 + ACK
0.060113736000000,I2C,0x10 + ACK
0.060233736000000,I2C,Setup Write to [0x36] + ACK
0.060323736000000,I2C,0x3F + ACK
0.060413736000000,I2C,0x01 + ACK
0.060503736000000,I2C,0x0A + ACK
0.060623736000000,I2C,Setup Write to [0x36] + ACK
0.060713736000000,I2C,0x3A + ACK
0.060803736000000,I2C,0x08 + ACK
0.060893736000000,I2C,0x01 + ACK
0.061013736000000,I2C,Setup Write to [0x36] + ACK
0.061103732000000,I2C,0x3A + ACK
0.061193732000000,I2C,0x09 + ACK
0.061283732000000,I2C,0x4B + ACK
0.061403732000000,I2C,Setup Write to [0x36] + ACK
0.061493732000000,I2C,0x3A + ACK
0.061583732000000,I2C,0x0A + ACK
0.061673732000000,I2C,0x01 + ACK
0.061793732000000,I2C,Setup Write to [0x36] + ACK
0.061883732000000,I2C,0x3A + ACK
0.061973732000000,I2C,0x0B + ACK
0.062063732000000,I2C,0x13 + ACK
0.062183732000000,I2C,Setup Write to [0x36] + ACK
0.062273728000000,I2C,0x3A + ACK
0.062363728000000,I2C,0x0D + ACK
0.062453728000000,I2C,0x04 + ACK
0.062573728000000,I2C,Setup Write to [0x36] + ACK
0.062663728000000,I2C,0x3A + ACK
0.062753728000000,I2C,0x0E + ACK
0.062843728000000,I2C,0x03 + ACK
0.062963728000000,I2C,Setup Write to [0x36] + ACK
0.063053724000000,I2C,0x3A + ACK
0.063143728000000,I2C,0x0F + ACK
0.063233724000000,I2C,0x58 + ACK
0.063353728000000,I2C,Setup Write to [0x36] + ACK
0.063443724000000,I2C,0x3A + ACK
0.063533724000000,I2C,0x10 + ACK
0.063623724000000,I2C,0x50 + ACK
0.063743724000000,I2C,Setup Write to [0x36] + ACK
0.063833724000000,I2C,0x3A + ACK
0.063923724000000,I2C,0x1B + ACK
0.064013724000000,I2C,0x58 + ACK
0.064133724000000,I2C,Setup Write to [0x36] + ACK
0.064223720000000,I2C,0x3A + ACK
0.064313720000000,I2C,0x1E + ACK
0.064403720000000,I2C,0x50 + ACK
0.064523724000000,I2C,Setup Write to [0x36] + ACK
0.064613720000000,I2C,0x3A + ACK
0.064703720000000,I2C,0x11 + ACK
0.064793720000000,I2C,0x60 + ACK
0.064913720000000,I2C,Setup Write to [0x36] + ACK
0.065003720000000,I2C,0x3A + ACK
0.065093720000000,I2C,0x1F + ACK
0.065183720000000,I2C,0x28 + ACK
0.065303720000000,I2C,Setup Write to [0x36] + ACK
0.065393716000000,I2C,0x40 + ACK
0.065483716000000,I2C,0x01 + ACK
0.065573716000000,I2C,0x02 + ACK
0.065693716000000,I2C,Setup Write to [0x36] + ACK
0.065783716000000,I2C,0x40 + ACK
0.065873716000000,I2C,0x04 + ACK
0.065963716000000,I2C,0x04 + ACK
0.066083716000000,I2C,Setup Write to [0x36] + ACK
0.066173716000000,I2C,0x40 + ACK
0.066263716000000,I2C,0x00 + ACK
0.066353712000000,I2C,0x09 + ACK
0.066473716000000,I2C,Setup Write to [0x36] + ACK
0.066563712000000,I2C,0x48 + ACK
0.066653712000000,I2C,0x37 + ACK
0.066743712000000,I2C,0x19 + ACK
0.066863716000000,I2C,Setup Write to [0x36] + ACK
0.066953712000000,I2C,0x48 + ACK
0.067043712000000,I2C,0x00 + ACK
0.067133712000000,I2C,0x34 + ACK
0.067253712000000,I2C,Setup Write to [0x36] + ACK
0.067343712000000,I2C,0x35 + ACK
0.067433708000000,I2C,0x03 + ACK
0.067523708000000,I2C,0x03 + ACK
0.067643712000000,I2C,Setup Write to [0x36] + ACK
0.067733708000000,I2C,0x38 + ACK
0.067823708000000,I2C,0x20 + ACK
0.067933712000000,I2C,Setup Read to [0x36] + ACK
0.068023708000000,I2C,0x00 + NAK
0.068145036000000,I2C,Setup Write to [0x36] + ACK
0.068235036000000,I2C,0x38 + ACK
0.068325036000000,I2C,0x21 + ACK
0.068435036000000,I2C,Setup Read to [0x36] + ACK
0.068525032000000,I2C,0x00 + NAK
0.068646712000000,I2C,Setup Write to [0x36] + ACK
0.068736708000000,I2C,0x38 + ACK
0.068826708000000,I2C,0x20 + ACK
0.068916708000000,I2C,0x00 + ACK
0.069036708000000,I2C,Setup Write to [0x36] + ACK
0.069126708000000,I2C,0x38 + ACK
0.069216708000000,I2C,0x21 + ACK
0.069306708000000,I2C,0x02 + ACK
0.069436708000000,I2C,Setup Write to [0x36] + ACK
0.069526704000000,I2C,0x35 + ACK
0.069616704000000,I2C,0x0A + ACK
0.069706708000000,I2C,0x00 + ACK
0.069826708000000,I2C,Setup Write to [0x36] + ACK
0.069916704000000,I2C,0x35 + ACK
0.070006704000000,I2C,0x0B + ACK
0.070096704000000,I2C,0x10 + ACK
0.070221704000000,I2C,Setup Write to [0x36] + ACK
0.070311704000000,I2C,0x32 + ACK
0.070401704000000,I2C,0x12 + ACK
0.070491700000000,I2C,0x00 + ACK
0.070611704000000,I2C,Setup Write to [0x36] + ACK
0.070701700000000,I2C,0x38 + ACK
0.070791700000000,I2C,0x0E + ACK
0.070881700000000,I2C,0x04 + ACK
0.070971700000000,I2C,0x66 + ACK
0.071091704000000,I2C,Setup Write to [0x36] + ACK
0.071181700000000,I2C,0x35 + ACK
0.071271700000000,I2C,0x00 + ACK
0.071361700000000,I2C,0x00 + ACK
0.071481700000000,I2C,Setup Write to [0x36] + ACK
0.071571700000000,I2C,0x35 + ACK
0.071661696000000,I2C,0x01 + ACK
0.071751696000000,I2C,0x15 + ACK
0.071871700000000,I2C,Setup Write to [0x36] + ACK
0.071961696000000,I2C,0x35 + ACK
0.072051696000000,I2C,0x02 + ACK
0.072141696000000,I2C,0x20 + ACK
0.072261696000000,I2C,Setup Write to [0x36] + ACK
0.072351696000000,I2C,0x32 + ACK
0.072441696000000,I2C,0x12 + ACK
0.072531696000000,I2C,0x10 + ACK
0.072651696000000,I2C,Setup Write to [0x36] + ACK
0.072741692000000,I2C,0x32 + ACK
0.072831692000000,I2C,0x12 + ACK
0.072921692000000,I2C,0xA0 + ACK
0.073046696000000,I2C,Setup Write to [0x36] + ACK
0.073136692000000,I2C,0x35 + ACK
0.073226692000000,I2C,0x0A + ACK
0.073316692000000,I2C,0x00 + ACK
0.073436692000000,I2C,Setup Write to [0x36] + ACK
0.073526692000000,I2C,0x35 + ACK
0.073616692000000,I2C,0x0B + ACK
0.073706692000000,I2C,0x10 + ACK
0.078796672000000,I2C,Setup Write to [0x36] + ACK
0.078886672000000,I2C,0x35 + ACK
0.078976672000000,I2C,0x0A + ACK
0.079066672000000,I2C,0x00 + ACK
0.079186672000000,I2C,Setup Write to [0x36] + ACK
0.079276668000000,I2C,0x35 + ACK
0.079366668000000,I2C,0x0B + ACK
0.079456668000000,I2C,0x10 + ACK
0.079581668000000,I2C,Setup Write to [0x36] + ACK
0.079671668000000,I2C,0x32 + ACK
0.079761668000000,I2C,0x12 + ACK
0.079851668000000,I2C,0x00 + ACK
0.079971668000000,I2C,Setup Write to [0x36] + ACK
0.080061668000000,I2C,0x35 + ACK
0.080151668000000,I2C,0x00 + ACK
0.080241668000000,I2C,0x00 + ACK
0.080361668000000,I2C,Setup Write to [0x36] + ACK
0.080451664000000,I2C,0x35 + ACK
0.080541664000000,I2C,0x01 + ACK
0.080631664000000,I2C,0x15 + ACK
0.080751664000000,I2C,Setup Write to [0x36] + ACK
0.080841664000000,I2C,0x35 + ACK
0.080931664000000,I2C,0x02 + ACK
0.081021664000000,I2C,0x20 + ACK
0.081141664000000,I2C,Setup Write to [0x36] + ACK
0.081231660000000,I2C,0x32 + ACK
0.081321660000000,I2C,0x12 + ACK
0.081411660000000,I2C,0x10 + ACK
0.081531660000000,I2C,Setup Write to [0x36] + ACK
0.081621660000000,I2C,0x32 + ACK
0.081711660000000,I2C,0x12 + ACK
0.081801660000000,I2C,0xA0 + ACK
0.083046656000000,I2C,Setup Write to [0x36] + ACK
0.083136656000000,I2C,0x01 + ACK
0.083226656000000,I2C,0x00 + ACK
0.083316656000000,I2C,0x01 + ACK
0.089021632000000,I2C,Setup Write to [0x36] + ACK
0.089111632000000,I2C,0x35 + ACK
0.089201632000000,I2C,0x0A + ACK
0.089291632000000,I2C,0x00 + ACK
0.089411632000000,I2C,Setup Write to [0x36] + ACK
0.089501632000000,I2C,0x35 + ACK
0.089591632000000,I2C,0x0B + ACK
0.089681632000000,I2C,0x10 + ACK
0.089806632000000,I2C,Setup Write to [0x36] + ACK
0.089896628000000,I2C,0x32 + ACK
0.089986628000000,I2C,0x12 + ACK
0.090076628000000,I2C,0x00 + ACK
0.090196628000000,I2C,Setup Write to [0x36] + ACK
0.090286628000000,I2C,0x35 + ACK
0.090376628000000,I2C,0x00 + ACK
0.090466628000000,I2C,0x00 + ACK
0.090586628000000,I2C,Setup Write to [0x36] + ACK
0.090676628000000,I2C,0x35 + ACK
0.090766628000000,I2C,0x01 + ACK
0.090856624000000,I2C,0x15 + ACK
0.090976628000000,I2C,Setup Write to [0x36] + ACK
0.091066624000000,I2C,0x35 + ACK
0.091156624000000,I2C,0x02 + ACK
0.091246624000000,I2C,0x20 + ACK
0.091366624000000,I2C,Setup Write to [0x36] + ACK
0.091456624000000,I2C,0x32 + ACK
0.091546624000000,I2C,0x12 + ACK
0.091636624000000,I2C,0x10 + ACK
0.091756624000000,I2C,Setup Write to [0x36] + ACK
0.091846620000000,I2C,0x32 + ACK
0.091936620000000,I2C,0x12 + ACK
0.092026620000000,I2C,0xA0 + ACK
0.188951260000000,I2C,Setup Write to [0x36] + ACK
0.189041256000000,I2C,0x35 + ACK
0.189131256000000,I2C,0x0A + ACK
0.189221256000000,I2C,0x00 + ACK
0.189341256000000,I2C,Setup Write to [0x36] + ACK
0.189431256000000,I2C,0x35 + ACK
0.189521256000000,I2C,0x0B + ACK
0.189611256000000,I2C,0x13 + ACK
0.189741256000000,I2C,Setup Write to [0x36] + ACK
0.189831256000000,I2C,0x32 + ACK
0.189921252000000,I2C,0x12 + ACK
0.190011252000000,I2C,0x00 + ACK
0.190131256000000,I2C,Setup Write to [0x36] + ACK
0.190221252000000,I2C,0x35 + ACK
0.190311252000000,I2C,0x00 + ACK
0.190401252000000,I2C,0x00 + ACK
0.190521252000000,I2C,Setup Write to [0x36] + ACK
0.190611252000000,I2C,0x35 + ACK
0.190701252000000,I2C,0x01 + ACK
0.190791252000000,I2C,0x45 + ACK
0.190911252000000,I2C,Setup Write to [0x36] + ACK
0.191001248000000,I2C,0x35 + ACK
0.191091248000000,I2C,0x02 + ACK
0.191181248000000,I2C,0xB0 + ACK
0.191301248000000,I2C,Setup Write to [0x36] + ACK
0.191391248000000,I2C,0x32 + ACK
0.191481248000000,I2C,0x12 + ACK
0.191571248000000,I2C,0x10 + ACK
0.191691248000000,I2C,Setup Write to [0x36] + ACK
0.191781248000000,I2C,0x32 + ACK
0.191871248000000,I2C,0x12 + ACK
0.191961244000000,I2C,0xA0 + ACK
0.255576008000000,I2C,Setup Write to [0x36] + ACK
0.255666008000000,I2C,0x35 + ACK
0.255756008000000,I2C,0x0A + ACK
0.255846004000000,I2C,0x00 + ACK
0.255966008000000,I2C,Setup Write to [0x36] + ACK
0.256056004000000,I2C,0x35 + ACK
0.256146004000000,I2C,0x0B + ACK
0.256236004000000,I2C,0x13 + ACK
0.256366004000000,I2C,Setup Write to [0x36] + ACK
0.256456004000000,I2C,0x32 + ACK
0.256546004000000,I2C,0x12 + ACK
0.256636004000000,I2C,0x00 + ACK
0.256756004000000,I2C,Setup Write to [0x36] + ACK
0.256846000000000,I2C,0x35 + ACK
0.256936000000000,I2C,0x00 + ACK
0.257026000000000,I2C,0x00 + ACK
0.257146004000000,I2C,Setup Write to [0x36] + ACK
0.257236000000000,I2C,0x35 + ACK
0.257326000000000,I2C,0x01 + ACK
0.257416000000000,I2C,0x45 + ACK
0.257536000000000,I2C,Setup Write to [0x36] + ACK
0.257626000000000,I2C,0x35 + ACK
0.257716000000000,I2C,0x02 + ACK
0.257805996000000,I2C,0xB0 + ACK
0.257926000000000,I2C,Setup Write to [0x36] + ACK
0.258016000000000,I2C,0x32 + ACK
0.258105996000000,I2C,0x12 + ACK
0.258195996000000,I2C,0x10 + ACK
0.258316000000000,I2C,Setup Write to [0x36] + ACK
0.258405996000000,I2C,0x32 + ACK
0.258495996000000,I2C,0x12 + ACK
0.258585996000000,I2C,0xA0 + ACK
0.322200756000000,I2C,Setup Write to [0x36] + ACK
0.322290756000000,I2C,0x35 + ACK
0.322380756000000,I2C,0x0A + ACK
0.322470756000000,I2C,0x00 + ACK
0.322590756000000,I2C,Setup Write to [0x36] + ACK
0.322680756000000,I2C,0x35 + ACK
0.322770756000000,I2C,0x0B + ACK
0.322860752000000,I2C,0x17 + ACK
0.322990756000000,I2C,Setup Write to [0x36] + ACK
0.323080752000000,I2C,0x32 + ACK
0.323170752000000,I2C,0x12 + ACK
0.323260752000000,I2C,0x00 + ACK
0.323385752000000,I2C,Setup Write to [0x36] + ACK
0.323475752000000,I2C,0x35 + ACK
0.323565752000000,I2C,0x00 + ACK
0.323655752000000,I2C,0x00 + ACK
0.323775752000000,I2C,Setup Write to [0x36] + ACK
0.323865752000000,I2C,0x35 + ACK
0.323955748000000,I2C,0x01 + ACK
0.324045748000000,I2C,0x45 + ACK
0.324165752000000,I2C,Setup Write to [0x36] + ACK
0.324255748000000,I2C,0x35 + ACK
0.324345748000000,I2C,0x02 + ACK
0.324435748000000,I2C,0xB0 + ACK
0.324555748000000,I2C,Setup Write to [0x36] + ACK
0.324645748000000,I2C,0x32 + ACK
0.324735748000000,I2C,0x12 + ACK
0.324825748000000,I2C,0x10 + ACK
0.324945748000000,I2C,Setup Write to [0x36] + ACK
0.325035744000000,I2C,0x32 + ACK
0.325125748000000,I2C,0x12 + ACK
0.325215744000000,I2C,0xA0 + ACK
0.388820508000000,I2C,Setup Write to [0x36] + ACK
0.388910504000000,I2C,0x35 + ACK
0.389000504000000,I2C,0x0A + ACK
0.389090504000000,I2C,0x00 + ACK
0.389210504000000,I2C,Setup Write to [0x36] + ACK
0.389300504000000,I2C,0x35 + ACK
0.389390504000000,I2C,0x0B + ACK
0.389480504000000,I2C,0x18 + ACK
0.389610504000000,I2C,Setup Write to [0x36] + ACK
0.389700500000000,I2C,0x32 + ACK
0.389790504000000,I2C,0x12 + ACK
0.389880504000000,I2C,0x00 + ACK
0.390000500000000,I2C,Setup Write to [0x36] + ACK
0.390090500000000,I2C,0x38 + ACK
0.390180500000000,I2C,0x0E + ACK
0.390270500000000,I2C,0x04 + ACK
0.390360500000000,I2C,0xF8 + ACK
0.390480500000000,I2C,Setup Write to [0x36] + ACK
0.390570500000000,I2C,0x35 + ACK
0.390660500000000,I2C,0x00 + ACK
0.390750496000000,I2C,0x00 + ACK
0.390870500000000,I2C,Setup Write to [0x36] + ACK
0.390960496000000,I2C,0x35 + ACK
0.391050496000000,I2C,0x01 + ACK
0.391140496000000,I2C,0x4F + ACK
0.391260500000000,I2C,Setup Write to [0x36] + ACK
0.391350496000000,I2C,0x35 + ACK
0.391440496000000,I2C,0x02 + ACK
0.391530496000000,I2C,0x20 + ACK
0.391650496000000,I2C,Setup Write to [0x36] + ACK
0.391740496000000,I2C,0x32 + ACK
0.391830496000000,I2C,0x12 + ACK
0.391920496000000,I2C,0x10 + ACK
0.392040496000000,I2C,Setup Write to [0x36] + ACK
0.392130492000000,I2C,0x32 + ACK
0.392220492000000,I2C,0x12 + ACK
0.392310492000000,I2C,0xA0 + ACK
0.459770240000000,I2C,Setup Write to [0x36] + ACK
0.459860240000000,I2C,0x35 + ACK
0.459950240000000,I2C,0x0A + ACK
0.460040236000000,I2C,0x00 + ACK
0.460160240000000,I2C,Setup Write to [0x36] + ACK
0.460250236000000,I2C,0x35 + ACK
0.460340236000000,I2C,0x0B + ACK
0.460430236000000,I2C,0x19 + ACK
0.460560236000000,I2C,Setup Write to [0x36] + ACK
0.460650236000000,I2C,0x32 + ACK
0.460740236000000,I2C,0x12 + ACK
0.460830236000000,I2C,0x00 + ACK
0.460955236000000,I2C,Setup Write to [0x36] + ACK
0.461045236000000,I2C,0x38 + ACK
0.461135232000000,I2C,0x0E + ACK
0.461225232000000,I2C,0x05 + ACK
0.461315232000000,I2C,0x4E + ACK
0.461435232000000,I2C,Setup Write to [0x36] + ACK
0.461525232000000,I2C,0x35 + ACK
0.461615232000000,I2C,0x00 + ACK
0.461705232000000,I2C,0x00 + ACK
0.461825232000000,I2C,Setup Write to [0x36] + ACK
0.461915232000000,I2C,0x35 + ACK
0.462005232000000,I2C,0x01 + ACK
0.462095232000000,I2C,0x54 + ACK
0.462215232000000,I2C,Setup Write to [0x36] + ACK
0.462305228000000,I2C,0x35 + ACK
0.462395228000000,I2C,0x02 + ACK
0.462485228000000,I2C,0x80 + ACK
0.462605228000000,I2C,Setup Write to [0x36] + ACK
0.462695228000000,I2C,0x32 + ACK
0.462785228000000,I2C,0x12 + ACK
0.462875228000000,I2C,0x10 + ACK
0.462995228000000,I2C,Setup Write to [0x36] + ACK
0.463085228000000,I2C,0x32 + ACK
0.463175224000000,I2C,0x12 + ACK
0.463265224000000,I2C,0xA0 + ACK
0.537574944000000,I2C,Setup Write to [0x36] + ACK
0.537664944000000,I2C,0x35 + ACK
0.537754944000000,I2C,0x0A + ACK
0.537844944000000,I2C,0x00 + ACK
0.537964944000000,I2C,Setup Write to [0x36] + ACK
0.538054944000000,I2C,0x35 + ACK
0.538144944000000,I2C,0x0B + ACK
0.538234944000000,I2C,0x1B + ACK
0.538364944000000,I2C,Setup Write to [0x36] + ACK
0.538454940000000,I2C,0x32 + ACK
0.538544940000000,I2C,0x12 + ACK
0.538634940000000,I2C,0x00 + ACK
0.538754944000000,I2C,Setup Write to [0x36] + ACK
0.538844940000000,I2C,0x38 + ACK
0.538934940000000,I2C,0x0E + ACK
0.539024940000000,I2C,0x05 + ACK
0.539114940000000,I2C,0x4E + ACK
0.539234940000000,I2C,Setup Write to [0x36] + ACK
0.539324940000000,I2C,0x35 + ACK
0.539414940000000,I2C,0x00 + ACK
0.539504940000000,I2C,0x00 + ACK
0.539624940000000,I2C,Setup Write to [0x36] + ACK
0.539714936000000,I2C,0x35 + ACK
0.539804936000000,I2C,0x01 + ACK
0.539894936000000,I2C,0x54 + ACK
0.540014936000000,I2C,Setup Write to [0x36] + ACK
0.540104936000000,I2C,0x35 + ACK
0.540194936000000,I2C,0x02 + ACK
0.540284932000000,I2C,0x80 + ACK
0.540404936000000,I2C,Setup Write to [0x36] + ACK
0.540494936000000,I2C,0x32 + ACK
0.540584932000000,I2C,0x12 + ACK
0.540674936000000,I2C,0x10 + ACK
0.540794936000000,I2C,Setup Write to [0x36] + ACK
0.540884932000000,I2C,0x32 + ACK
0.540974932000000,I2C,0x12 + ACK
0.541064932000000,I2C,0xA0 + ACK
0.577749796000000,I2C,Setup Write to [0x36] + ACK
0.577839792000000,I2C,0x35 + ACK
0.577929792000000,I2C,0x0A + ACK
0.578019792000000,I2C,0x00 + ACK
0.578139792000000,I2C,Setup Write to [0x36] + ACK
0.578229792000000,I2C,0x35 + ACK
0.578319792000000,I2C,0x0B + ACK
0.578409792000000,I2C,0x1D + ACK
0.578539792000000,I2C,Setup Write to [0x36] + ACK
0.578629788000000,I2C,0x32 + ACK
0.578719792000000,I2C,0x12 + ACK
0.578809792000000,I2C,0x00 + ACK
0.578929792000000,I2C,Setup Write to [0x36] + ACK
0.579019788000000,I2C,0x38 + ACK
0.579109788000000,I2C,0x0E + ACK
0.579199788000000,I2C,0x05 + ACK
0.579289788000000,I2C,0x4E + ACK
0.579409788000000,I2C,Setup Write to [0x36] + ACK
0.579499788000000,I2C,0x35 + ACK
0.579589788000000,I2C,0x00 + ACK
0.579679788000000,I2C,0x00 + ACK
0.579799788000000,I2C,Setup Write to [0x36] + ACK
0.579889784000000,I2C,0x35 + ACK
0.579979784000000,I2C,0x01 + ACK
0.580069784000000,I2C,0x54 + ACK
0.580189788000000,I2C,Setup Write to [0x36] + ACK
0.580279784000000,I2C,0x35 + ACK
0.580369784000000,I2C,0x02 + ACK
0.580459784000000,I2C,0x80 + ACK
0.580579784000000,I2C,Setup Write to [0x36] + ACK
0.580669784000000,I2C,0x32 + ACK
0.580759784000000,I2C,0x12 + ACK
0.580849784000000,I2C,0x10 + ACK
0.580969784000000,I2C,Setup Write to [0x36] + ACK
0.581059780000000,I2C,0x32 + ACK
0.581149780000000,I2C,0x12 + ACK
0.581239780000000,I2C,0xA0 + ACK
0.738434188000000,I2C,Setup Write to [0x36] + ACK
0.738524188000000,I2C,0x35 + ACK
0.738614188000000,I2C,0x0A + ACK
0.738704188000000,I2C,0x00 + ACK
0.738824188000000,I2C,Setup Write to [0x36] + ACK
0.738914184000000,I2C,0x35 + ACK
0.739004184000000,I2C,0x0B + ACK
0.739094184000000,I2C,0x1A + ACK
0.739224184000000,I2C,Setup Write to [0x36] + ACK
0.739314184000000,I2C,0x32 + ACK
0.739404184000000,I2C,0x12 + ACK
0.739494184000000,I2C,0x00 + ACK
0.739614184000000,I2C,Setup Write to [0x36] + ACK
0.739704184000000,I2C,0x38 + ACK
0.739794180000000,I2C,0x0E + ACK
0.739884180000000,I2C,0x05 + ACK
0.739974180000000,I2C,0x4E + ACK
0.740094184000000,I2C,Setup Write to [0x36] + ACK
0.740184180000000,I2C,0x35 + ACK
0.740274180000000,I2C,0x00 + ACK
0.740364180000000,I2C,0x00 + ACK
0.740484184000000,I2C,Setup Write to [0x36] + ACK
0.740574176000000,I2C,0x35 + ACK
0.740664180000000,I2C,0x01 + ACK
0.740754180000000,I2C,0x54 + ACK
0.740874180000000,I2C,Setup Write to [0x36] + ACK
0.740964176000000,I2C,0x35 + ACK
0.741054176000000,I2C,0x02 + ACK
0.741144176000000,I2C,0x80 + ACK
0.741264180000000,I2C,Setup Write to [0x36] + ACK
0.741354176000000,I2C,0x32 + ACK
0.741444176000000,I2C,0x12 + ACK
0.741534176000000,I2C,0x10 + ACK
0.741654176000000,I2C,Setup Write to [0x36] + ACK
0.741744176000000,I2C,0x32 + ACK
0.741834172000000,I2C,0x12 + ACK
0.741924172000000,I2C,0xA0 + ACK
0.818803884000000,I2C,Setup Write to [0x36] + ACK
0.818893884000000,I2C,0x35 + ACK
0.818983884000000,I2C,0x0A + ACK
0.819073884000000,I2C,0x00 + ACK
0.819193884000000,I2C,Setup Write to [0x36] + ACK
0.819283880000000,I2C,0x35 + ACK
0.819373880000000,I2C,0x0B + ACK
0.819463880000000,I2C,0x18 + ACK
0.819593880000000,I2C,Setup Write to [0x36] + ACK
0.819683880000000,I2C,0x32 + ACK
0.819773880000000,I2C,0x12 + ACK
0.819863880000000,I2C,0x00 + ACK
0.819983880000000,I2C,Setup Write to [0x36] + ACK
0.820073880000000,I2C,0x38 + ACK
0.820163880000000,I2C,0x0E + ACK
0.820253876000000,I2C,0x05 + ACK
0.820343876000000,I2C,0x1A + ACK
0.820463880000000,I2C,Setup Write to [0x36] + ACK
0.820553876000000,I2C,0x35 + ACK
0.820643876000000,I2C,0x00 + ACK
0.820733876000000,I2C,0x00 + ACK
0.820853876000000,I2C,Setup Write to [0x36] + ACK
0.820943876000000,I2C,0x35 + ACK
0.821033876000000,I2C,0x01 + ACK
0.821123876000000,I2C,0x51 + ACK
0.821243876000000,I2C,Setup Write to [0x36] + ACK
0.821333872000000,I2C,0x35 + ACK
0.821423872000000,I2C,0x02 + ACK
0.821513872000000,I2C,0x40 + ACK
0.821633872000000,I2C,Setup Write to [0x36] + ACK
0.821723872000000,I2C,0x32 + ACK
0.821813872000000,I2C,0x12 + ACK
0.821903872000000,I2C,0x10 + ACK
0.822023872000000,I2C,Setup Write to [0x36] + ACK
0.822113872000000,I2C,0x32 + ACK
0.822203872000000,I2C,0x12 + ACK
0.822293868000000,I2C,0xA0 + ACK
0.936233440000000,I2C,Setup Write to [0x36] + ACK
0.936323436000000,I2C,0x35 + ACK
0.936413440000000,I2C,0x0A + ACK
0.936503436000000,I2C,0x00 + ACK
0.936623440000000,I2C,Setup Write to [0x36] + ACK
0.936713436000000,I2C,0x35 + ACK
0.936803436000000,I2C,0x0B + ACK
0.936893436000000,I2C,0x18 + ACK
0.937018436000000,I2C,Setup Write to [0x36] + ACK
0.937108436000000,I2C,0x32 + ACK
0.937198436000000,I2C,0x12 + ACK
0.937288436000000,I2C,0x00 + ACK
0.937408436000000,I2C,Setup Write to [0x36] + ACK
0.937498432000000,I2C,0x38 + ACK
0.937588432000000,I2C,0x0E + ACK
0.937678432000000,I2C,0x04 + ACK
0.937768432000000,I2C,0xB5 + ACK
0.937888436000000,I2C,Setup Write to [0x36] + ACK
0.937978432000000,I2C,0x35 + ACK
0.938068432000000,I2C,0x00 + ACK
0.938158432000000,I2C,0x00 + ACK
0.938278432000000,I2C,Setup Write to [0x36] + ACK
0.938368428000000,I2C,0x35 + ACK
0.938458432000000,I2C,0x01 + ACK
0.938548432000000,I2C,0x4A + ACK
0.938668432000000,I2C,Setup Write to [0x36] + ACK
0.938758428000000,I2C,0x35 + ACK
0.938848428000000,I2C,0x02 + ACK
0.938938428000000,I2C,0xF0 + ACK
0.939058428000000,I2C,Setup Write to [0x36] + ACK
0.939148428000000,I2C,0x32 + ACK
0.939238428000000,I2C,0x12 + ACK
0.939328428000000,I2C,0x10 + ACK
0.939448428000000,I2C,Setup Write to [0x36] + ACK
0.939538428000000,I2C,0x32 + ACK
0.939628428000000,I2C,0x12 + ACK
0.939718424000000,I2C,0xA0 + ACK
0.974868296000000,I2C,Setup Write to [0x36] + ACK
0.974958292000000,I2C,0x35 + ACK
0.975048292000000,I2C,0x0A + ACK
0.975138292000000,I2C,0x00 + ACK
0.975258292000000,I2C,Setup Write to [0x36] + ACK
0.975348292000000,I2C,0x35 + ACK
0.975438292000000,I2C,0x0B + ACK
0.975528292000000,I2C,0x18 + ACK
0.975653292000000,I2C,Setup Write to [0x36] + ACK
0.975743288000000,I2C,0x32 + ACK
0.975833288000000,I2C,0x12 + ACK
0.975923288000000,I2C,0x00 + ACK
0.976043288000000,I2C,Setup Write to [0x36] + ACK
0.976133288000000,I2C,0x38 + ACK
0.976223288000000,I2C,0x0E + ACK
0.976313288000000,I2C,0x04 + ACK
0.976403288000000,I2C,0x7A + ACK
0.976523288000000,I2C,Setup Write to [0x36] + ACK
0.976613284000000,I2C,0x35 + ACK
0.976703284000000,I2C,0x00 + ACK
0.976793284000000,I2C,0x00 + ACK
0.976913288000000,I2C,Setup Write to [0x36] + ACK
0.977003284000000,I2C,0x35 + ACK
0.977093284000000,I2C,0x01 + ACK
0.977183284000000,I2C,0x47 + ACK
0.977303284000000,I2C,Setup Write to [0x36] + ACK
0.977393284000000,I2C,0x35 + ACK
0.977483284000000,I2C,0x02 + ACK
0.977573284000000,I2C,0x40 + ACK
0.977693284000000,I2C,Setup Write to [0x36] + ACK
0.977783284000000,I2C,0x32 + ACK
0.977873280000000,I2C,0x12 + ACK
0.977963280000000,I2C,0x10 + ACK
0.978083284000000,I2C,Setup Write to [0x36] + ACK
0.978173280000000,I2C,0x32 + ACK
0.978263280000000,I2C,0x12 + ACK
0.978353280000000,I2C,0xA0 + ACK
1.146122644000000,I2C,Setup Write to [0x36] + ACK
1.146212644000000,I2C,0x35 + ACK
1.146302644000000,I2C,0x0A + ACK
1.146392644000000,I2C,0x00 + ACK
1.146512644000000,I2C,Setup Write to [0x36] + ACK
1.146602640000000,I2C,0x35 + ACK
1.146692640000000,I2C,0x0B + ACK
1.146782640000000,I2C,0x18 + ACK
1.146912644000000,I2C,Setup Write to [0x36] + ACK
1.147002640000000,I2C,0x32 + ACK
1.147092640000000,I2C,0x12 + ACK
1.147182640000000,I2C,0x00 + ACK
1.147302640000000,I2C,Setup Write to [0x36] + ACK
1.147392640000000,I2C,0x38 + ACK
1.147482640000000,I2C,0x0E + ACK
1.147572640000000,I2C,0x04 + ACK
1.147662636000000,I2C,0x98 + ACK
1.147797640000000,I2C,Setup Write to [0x36] + ACK
1.147887636000000,I2C,0x35 + ACK
1.147977636000000,I2C,0x00 + ACK
1.148067636000000,I2C,0x00 + ACK
1.148187636000000,I2C,Setup Write to [0x36] + ACK
1.148277636000000,I2C,0x35 + ACK
1.148367636000000,I2C,0x01 + ACK
1.148457636000000,I2C,0x49 + ACK
1.148577636000000,I2C,Setup Write to [0x36] + ACK
1.148667636000000,I2C,0x35 + ACK
1.148757632000000,I2C,0x02 + ACK
1.148847636000000,I2C,0x20 + ACK
1.148967636000000,I2C,Setup Write to [0x36] + ACK
1.149057632000000,I2C,0x32 + ACK
1.149147632000000,I2C,0x12 + ACK
1.149237632000000,I2C,0x10 + ACK
1.149357632000000,I2C,Setup Write to [0x36] + ACK
1.149447632000000,I2C,0x32 + ACK
1.149537632000000,I2C,0x12 + ACK
1.149627628000000,I2C,0xA0 + ACK
1.214812384000000,I2C,Setup Write to [0x36] + ACK
1.214902384000000,I2C,0x35 + ACK
1.214992384000000,I2C,0x0A + ACK
1.215082384000000,I2C,0x00 + ACK
1.215202384000000,I2C,Setup Write to [0x36] + ACK
1.215292380000000,I2C,0x35 + ACK
1.215382380000000,I2C,0x0B + ACK
1.215472380000000,I2C,0x18 + ACK
1.215597380000000,I2C,Setup Write to [0x36] + ACK
1.215687380000000,I2C,0x32 + ACK
1.215777380000000,I2C,0x12 + ACK
1.215867380000000,I2C,0x00 + ACK
1.215987380000000,I2C,Setup Write to [0x36] + ACK
1.216077380000000,I2C,0x38 + ACK
1.216167380000000,I2C,0x0E + ACK
1.216257380000000,I2C,0x04 + ACK
1.216347376000000,I2C,0xC4 + ACK
1.216467380000000,I2C,Setup Write to [0x36] + ACK
1.216557376000000,I2C,0x35 + ACK
1.216647376000000,I2C,0x00 + ACK
1.216737376000000,I2C,0x00 + ACK
1.216857376000000,I2C,Setup Write to [0x36] + ACK
1.216947376000000,I2C,0x35 + ACK
1.217037376000000,I2C,0x01 + ACK
1.217127376000000,I2C,0x4B + ACK
1.217247376000000,I2C,Setup Write to [0x36] + ACK
1.217337372000000,I2C,0x35 + ACK
1.217427372000000,I2C,0x02 + ACK
1.217517372000000,I2C,0xE0 + ACK
1.217637376000000,I2C,Setup Write to [0x36] + ACK
1.217727372000000,I2C,0x32 + ACK
1.217817372000000,I2C,0x12 + ACK
1.217907372000000,I2C,0x10 + ACK
1.218027372000000,I2C,Setup Write to [0x36] + ACK
1.218117372000000,I2C,0x32 + ACK
1.218207372000000,I2C,0x12 + ACK
1.218297372000000,I2C,0xA0 + ACK
1.285707116000000,I2C,Setup Write to [0x36] + ACK
1.285797116000000,I2C,0x35 + ACK
1.285887116000000,I2C,0x0A + ACK
1.285977112000000,I2C,0x00 + ACK
1.286097116000000,I2C,Setup Write to [0x36] + ACK
1.286187112000000,I2C,0x35 + ACK
1.286277112000000,I2C,0x0B + ACK
1.286367112000000,I2C,0x18 + ACK
1.286497112000000,I2C,Setup Write to [0x36] + ACK
1.286587112000000,I2C,0x32 + ACK
1.286677112000000,I2C,0x12 + ACK
1.286767112000000,I2C,0x00 + ACK
1.286887112000000,I2C,Setup Write to [0x36] + ACK
1.286977108000000,I2C,0x38 + ACK
1.287067108000000,I2C,0x0E + ACK
1.287157108000000,I2C,0x04 + ACK
1.287247108000000,I2C,0xE9 + ACK
1.287367112000000,I2C,Setup Write to [0x36] + ACK
1.287457108000000,I2C,0x35 + ACK
1.287547108000000,I2C,0x00 + ACK
1.287637108000000,I2C,0x00 + ACK
1.287757108000000,I2C,Setup Write to [0x36] + ACK
1.287847108000000,I2C,0x35 + ACK
1.287937108000000,I2C,0x01 + ACK
1.288027108000000,I2C,0x4E + ACK
1.288147108000000,I2C,Setup Write to [0x36] + ACK
1.288237104000000,I2C,0x35 + ACK
1.288327104000000,I2C,0x02 + ACK
1.288417104000000,I2C,0x30 + ACK
1.288537104000000,I2C,Setup Write to [0x36] + ACK
1.288627104000000,I2C,0x32 + ACK
1.288717104000000,I2C,0x12 + ACK
1.288807104000000,I2C,0x10 + ACK
1.288927104000000,I2C,Setup Write to [0x36] + ACK
1.289017104000000,I2C,0x32 + ACK
1.289107100000000,I2C,0x12 + ACK
1.289197100000000,I2C,0xA0 + ACK
